! Quiescent point : Vgs=-5.00080E+00 Ig=-9.61234E-06 Vds=+1.00067E+02 Id=-1.49771E-04
! Pulsed point : Vgs=+1.99962E+00 Ig=+2.68961E-05 Vds=+1.53137E+01 Id=+8.18347E-01
# Hz S RI R 50
+4.00000E+08 +7.27486E-01 -6.50053E-01 -4.09689E+00 +2.03800E+00 +6.44408E-03 +1.68242E-02 +1.96183E-01 -8.18626E-02
+5.00000E+08 +6.05249E-01 -7.51470E-01 -3.71302E+00 +2.32779E+00 +1.00220E-02 +1.78488E-02 +1.79728E-01 -1.05166E-01
+6.00000E+08 +4.77532E-01 -8.25104E-01 -3.32259E+00 +2.54202E+00 +1.46663E-02 +2.04504E-02 +1.74104E-01 -1.18893E-01
+7.00000E+08 +3.55908E-01 -8.72161E-01 -2.94126E+00 +2.68675E+00 +1.73545E-02 +2.02071E-02 +1.59639E-01 -1.23799E-01
+8.00000E+08 +2.36936E-01 -8.99003E-01 -2.58400E+00 +2.76843E+00 +2.03794E-02 +2.05788E-02 +1.46576E-01 -1.33827E-01
+9.00000E+08 +1.26904E-01 -9.11220E-01 -2.25149E+00 +2.80515E+00 +2.33817E-02 +2.10696E-02 +1.38490E-01 -1.42248E-01
+1.00000E+09 +2.81669E-02 -9.09128E-01 -1.94851E+00 +2.79988E+00 +2.62169E-02 +2.06880E-02 +1.28428E-01 -1.46685E-01
+1.10000E+09 -6.17341E-02 -8.99310E-01 -1.68038E+00 +2.76953E+00 +2.78545E-02 +1.96458E-02 +1.17641E-01 -1.52395E-01
+1.20000E+09 -1.42714E-01 -8.83732E-01 -1.44072E+00 +2.72367E+00 +3.05670E-02 +1.82076E-02 +1.09893E-01 -1.59331E-01
+1.30000E+09 -2.12761E-01 -8.60674E-01 -1.22354E+00 +2.66026E+00 +3.26527E-02 +1.84125E-02 +1.04040E-01 -1.62154E-01
+1.40000E+09 -2.77147E-01 -8.35262E-01 -1.03466E+00 +2.58772E+00 +3.47986E-02 +1.73952E-02 +9.43845E-02 -1.66287E-01
+1.50000E+09 -3.32157E-01 -8.09346E-01 -8.68769E-01 +2.50672E+00 +3.52542E-02 +1.61463E-02 +8.83845E-02 -1.71276E-01
+1.60000E+09 -3.82023E-01 -7.80730E-01 -7.18748E-01 +2.42938E+00 +3.61228E-02 +1.51948E-02 +8.21418E-02 -1.75469E-01
+1.70000E+09 -4.25499E-01 -7.53851E-01 -5.85372E-01 +2.34522E+00 +3.78117E-02 +1.36007E-02 +7.57003E-02 -1.78271E-01
+1.80000E+09 -4.66447E-01 -7.24715E-01 -4.69906E-01 +2.26585E+00 +3.92617E-02 +1.19257E-02 +6.98447E-02 -1.83076E-01
+1.90000E+09 -5.00080E-01 -6.96087E-01 -3.70629E-01 +2.18410E+00 +3.99318E-02 +1.18984E-02 +6.57231E-02 -1.87893E-01
+2.00000E+09 -5.31285E-01 -6.68802E-01 -2.76094E-01 +2.10552E+00 +3.96390E-02 +1.06136E-02 +6.07259E-02 -1.90479E-01
+2.10000E+09 -5.58397E-01 -6.41824E-01 -1.95700E-01 +2.02854E+00 +4.15849E-02 +8.60009E-03 +5.37490E-02 -1.94987E-01
+2.20000E+09 -5.82403E-01 -6.15070E-01 -1.24429E-01 +1.95560E+00 +4.17524E-02 +8.38989E-03 +4.94557E-02 -1.98950E-01
+2.30000E+09 -6.03579E-01 -5.92820E-01 -6.09318E-02 +1.88613E+00 +4.12676E-02 +7.57442E-03 +4.58908E-02 -2.02445E-01
+2.40000E+09 -6.23248E-01 -5.66669E-01 -4.78491E-04 +1.81669E+00 +4.23620E-02 +5.55000E-03 +4.05829E-02 -2.06815E-01
+2.50000E+09 -6.44101E-01 -5.43900E-01 +5.02919E-02 +1.75063E+00 +4.26610E-02 +5.58031E-03 +3.43452E-02 -2.11032E-01
+2.60000E+09 -6.57915E-01 -5.23092E-01 +9.75669E-02 +1.68909E+00 +4.25037E-02 +3.80209E-03 +3.06376E-02 -2.14469E-01
+2.70000E+09 -6.71565E-01 -5.00103E-01 +1.39230E-01 +1.62799E+00 +4.25966E-02 +3.21523E-03 +2.54738E-02 -2.19117E-01
+2.80000E+09 -6.86720E-01 -4.79037E-01 +1.78363E-01 +1.57020E+00 +4.35425E-02 +1.48800E-03 +2.04106E-02 -2.21383E-01
+2.90000E+09 -6.97796E-01 -4.58952E-01 +2.13120E-01 +1.51459E+00 +4.24207E-02 +1.83319E-03 +1.55973E-02 -2.26456E-01
+3.00000E+09 -7.09451E-01 -4.39933E-01 +2.44489E-01 +1.46012E+00 +4.22106E-02 +1.20194E-03 +9.64241E-03 -2.30979E-01
+3.10000E+09 -7.20289E-01 -4.21509E-01 +2.71301E-01 +1.41058E+00 +4.21484E-02 +1.28908E-04 +5.10117E-03 -2.33645E-01
+3.20000E+09 -7.28622E-01 -4.04209E-01 +2.95638E-01 +1.36182E+00 +4.29274E-02 -4.55439E-04 +1.06926E-03 -2.37516E-01
+3.30000E+09 -7.36785E-01 -3.85831E-01 +3.19696E-01 +1.31401E+00 +4.35504E-02 -1.63197E-04 -5.12419E-03 -2.41523E-01
+3.40000E+09 -7.43702E-01 -3.68622E-01 +3.39138E-01 +1.26870E+00 +4.27312E-02 -1.96334E-03 -8.70683E-03 -2.43736E-01
+3.50000E+09 -7.52474E-01 -3.52783E-01 +3.58828E-01 +1.22674E+00 +4.30586E-02 -3.12483E-03 -1.40990E-02 -2.46938E-01
+3.60000E+09 -7.59206E-01 -3.37391E-01 +3.76275E-01 +1.18499E+00 +4.35423E-02 -2.84993E-03 -1.84496E-02 -2.51925E-01
+3.70000E+09 -7.64649E-01 -3.22464E-01 +3.90956E-01 +1.14563E+00 +4.27183E-02 -3.63651E-03 -2.28358E-02 -2.57079E-01
+3.80000E+09 -7.69352E-01 -3.08342E-01 +4.05117E-01 +1.10763E+00 +4.29223E-02 -5.23738E-03 -2.87383E-02 -2.58012E-01
+3.90000E+09 -7.73265E-01 -2.93666E-01 +4.18266E-01 +1.06878E+00 +4.14223E-02 -6.55648E-03 -3.40544E-02 -2.62749E-01
+4.00000E+09 -7.77942E-01 -2.78275E-01 +4.29208E-01 +1.03366E+00 +4.25526E-02 -6.84172E-03 -3.88110E-02 -2.65291E-01
+4.10000E+09 -7.82145E-01 -2.65882E-01 +4.39231E-01 +9.99152E-01 +4.24865E-02 -6.44988E-03 -4.39121E-02 -2.68764E-01
+4.20000E+09 -7.87018E-01 -2.54332E-01 +4.49807E-01 +9.68301E-01 +4.17583E-02 -8.18686E-03 -4.76902E-02 -2.72586E-01
+4.30000E+09 -7.90144E-01 -2.40092E-01 +4.57604E-01 +9.35671E-01 +4.07183E-02 -7.71943E-03 -5.51229E-02 -2.76735E-01
+4.40000E+09 -7.92183E-01 -2.27109E-01 +4.64987E-01 +9.02873E-01 +4.20814E-02 -8.88797E-03 -5.86484E-02 -2.78708E-01
+4.50000E+09 -7.96610E-01 -2.16702E-01 +4.71672E-01 +8.71994E-01 +4.12271E-02 -8.18029E-03 -6.57147E-02 -2.81973E-01
+4.60000E+09 -7.98857E-01 -2.05132E-01 +4.78677E-01 +8.42841E-01 +4.08692E-02 -8.81287E-03 -7.01374E-02 -2.83805E-01
+4.70000E+09 -8.01783E-01 -1.92958E-01 +4.83238E-01 +8.14683E-01 +4.15663E-02 -9.91637E-03 -7.55884E-02 -2.88000E-01
+4.80000E+09 -8.04401E-01 -1.81287E-01 +4.88642E-01 +7.89077E-01 +4.12669E-02 -1.01245E-02 -8.06645E-02 -2.91145E-01
+4.90000E+09 -8.05756E-01 -1.70605E-01 +4.92111E-01 +7.61637E-01 +4.01861E-02 -1.09482E-02 -8.66158E-02 -2.92747E-01
+5.00000E+09 -8.08675E-01 -1.60216E-01 +4.94677E-01 +7.37125E-01 +4.06052E-02 -1.13275E-02 -9.33034E-02 -2.95683E-01
+5.10000E+09 -8.09484E-01 -1.48859E-01 +4.98606E-01 +7.13099E-01 +4.01888E-02 -1.29014E-02 -9.92140E-02 -2.98123E-01
+5.20000E+09 -8.11336E-01 -1.38648E-01 +4.99993E-01 +6.88034E-01 +3.96551E-02 -1.25103E-02 -1.04399E-01 -3.01521E-01
+5.30000E+09 -8.12166E-01 -1.29237E-01 +5.03633E-01 +6.66421E-01 +3.90971E-02 -1.31965E-02 -1.09045E-01 -3.03325E-01
+5.40000E+09 -8.12694E-01 -1.18653E-01 +5.06216E-01 +6.44299E-01 +3.85265E-02 -1.41608E-02 -1.15618E-01 -3.05117E-01
+5.50000E+09 -8.15045E-01 -1.09054E-01 +5.07812E-01 +6.21661E-01 +3.77717E-02 -1.40064E-02 -1.22159E-01 -3.08301E-01
+5.60000E+09 -8.15965E-01 -9.95516E-02 +5.06622E-01 +6.01089E-01 +3.75942E-02 -1.55116E-02 -1.27875E-01 -3.10484E-01
+5.70000E+09 -8.16003E-01 -9.07082E-02 +5.09451E-01 +5.79569E-01 +3.86976E-02 -1.37473E-02 -1.31491E-01 -3.10595E-01
+5.80000E+09 -8.15884E-01 -8.14219E-02 +5.06918E-01 +5.58096E-01 +3.66265E-02 -1.43636E-02 -1.38929E-01 -3.10370E-01
+5.90000E+09 -8.18567E-01 -7.37772E-02 +5.06442E-01 +5.41024E-01 +3.67456E-02 -1.45066E-02 -1.46181E-01 -3.12274E-01
+6.00000E+09 -8.18085E-01 -6.77723E-02 +5.04513E-01 +5.22134E-01 +3.72855E-02 -1.56473E-02 -1.52607E-01 -3.19205E-01
+6.10000E+09 -8.19848E-01 -5.90021E-02 +5.05204E-01 +5.06418E-01 +3.67147E-02 -1.62413E-02 -1.53951E-01 -3.22521E-01
+6.20000E+09 -8.20345E-01 -4.92265E-02 +5.05955E-01 +4.88118E-01 +3.69065E-02 -1.66985E-02 -1.60128E-01 -3.19623E-01
+6.30000E+09 -8.20995E-01 -4.00583E-02 +5.05748E-01 +4.71863E-01 +3.39409E-02 -1.66367E-02 -1.69871E-01 -3.20359E-01
+6.40000E+09 -8.22005E-01 -3.06989E-02 +5.05202E-01 +4.53428E-01 +3.57977E-02 -1.79214E-02 -1.75226E-01 -3.25708E-01
+6.50000E+09 -8.21455E-01 -2.20819E-02 +5.03981E-01 +4.38596E-01 +3.41754E-02 -1.82188E-02 -1.79669E-01 -3.26976E-01
+6.60000E+09 -8.20390E-01 -1.43551E-02 +5.03010E-01 +4.21468E-01 +3.55525E-02 -1.76101E-02 -1.86000E-01 -3.23739E-01
+6.70000E+09 -8.22230E-01 -7.65399E-03 +5.00855E-01 +4.05863E-01 +3.40551E-02 -1.70624E-02 -1.93928E-01 -3.27457E-01
+6.80000E+09 -8.21319E-01 -8.91546E-04 +4.97508E-01 +3.91514E-01 +3.35458E-02 -1.74601E-02 -2.00042E-01 -3.28924E-01
+6.90000E+09 -8.20205E-01 +6.84413E-03 +4.96383E-01 +3.76549E-01 +3.44062E-02 -1.70451E-02 -2.05152E-01 -3.29031E-01
+7.00000E+09 -8.20759E-01 +1.60437E-02 +4.92985E-01 +3.61839E-01 +3.40087E-02 -1.86060E-02 -2.12769E-01 -3.29269E-01
+7.10000E+09 -8.20199E-01 +2.17146E-02 +4.90736E-01 +3.47986E-01 +3.27081E-02 -1.82859E-02 -2.18071E-01 -3.29441E-01
+7.20000E+09 -8.19603E-01 +2.98953E-02 +4.89935E-01 +3.35201E-01 +3.28092E-02 -1.97680E-02 -2.24389E-01 -3.30991E-01
+7.30000E+09 -8.19654E-01 +3.47737E-02 +4.85425E-01 +3.22414E-01 +3.32782E-02 -1.94860E-02 -2.30030E-01 -3.31388E-01
+7.40000E+09 -8.18735E-01 +4.36954E-02 +4.82670E-01 +3.10078E-01 +3.23486E-02 -1.90618E-02 -2.34339E-01 -3.32667E-01
+7.50000E+09 -8.19215E-01 +5.12490E-02 +4.80077E-01 +2.98466E-01 +3.20828E-02 -1.98989E-02 -2.40268E-01 -3.31845E-01
+7.60000E+09 -8.19089E-01 +5.80223E-02 +4.77804E-01 +2.85744E-01 +3.08285E-02 -1.99950E-02 -2.48949E-01 -3.29555E-01
+7.70000E+09 -8.18481E-01 +6.49802E-02 +4.74480E-01 +2.74938E-01 +3.08813E-02 -1.93203E-02 -2.58039E-01 -3.31351E-01
+7.80000E+09 -8.17686E-01 +7.16607E-02 +4.71354E-01 +2.61785E-01 +3.01933E-02 -1.96133E-02 -2.62985E-01 -3.33047E-01
+7.90000E+09 -8.16204E-01 +7.74221E-02 +4.68141E-01 +2.49566E-01 +3.03512E-02 -1.99257E-02 -2.66379E-01 -3.31443E-01
+8.00000E+09 -8.14244E-01 +8.46554E-02 +4.65716E-01 +2.40221E-01 +2.99151E-02 -2.02705E-02 -2.73832E-01 -3.30347E-01
+8.10000E+09 -8.14676E-01 +9.20530E-02 +4.61438E-01 +2.29105E-01 +2.99994E-02 -2.03746E-02 -2.82166E-01 -3.30270E-01
+8.20000E+09 -8.14167E-01 +9.68756E-02 +4.58528E-01 +2.20004E-01 +2.87476E-02 -2.03599E-02 -2.85627E-01 -3.29684E-01
+8.30000E+09 -8.13279E-01 +1.03332E-01 +4.54284E-01 +2.09687E-01 +2.92017E-02 -2.07980E-02 -2.90477E-01 -3.25486E-01
+8.40000E+09 -8.11893E-01 +1.11581E-01 +4.52691E-01 +1.99233E-01 +2.94723E-02 -2.06105E-02 -2.98968E-01 -3.27262E-01
+8.50000E+09 -8.10655E-01 +1.16914E-01 +4.48889E-01 +1.90082E-01 +2.75816E-02 -2.26027E-02 -3.04159E-01 -3.27851E-01
+8.60000E+09 -8.09280E-01 +1.22371E-01 +4.44117E-01 +1.81089E-01 +2.85612E-02 -2.02008E-02 -3.08723E-01 -3.26403E-01
+8.70000E+09 -8.08250E-01 +1.30623E-01 +4.39625E-01 +1.71467E-01 +2.83536E-02 -2.12245E-02 -3.16637E-01 -3.23961E-01
+8.80000E+09 -8.07592E-01 +1.36411E-01 +4.35506E-01 +1.62388E-01 +2.65527E-02 -2.01305E-02 -3.22515E-01 -3.24336E-01
+8.90000E+09 -8.05234E-01 +1.41962E-01 +4.32584E-01 +1.54613E-01 +2.66256E-02 -2.19411E-02 -3.26249E-01 -3.23785E-01
+9.00000E+09 -8.05591E-01 +1.48772E-01 +4.30515E-01 +1.45922E-01 +2.70252E-02 -2.23996E-02 -3.30894E-01 -3.21497E-01
+9.10000E+09 -8.03786E-01 +1.54246E-01 +4.24433E-01 +1.36955E-01 +2.68931E-02 -2.24049E-02 -3.39716E-01 -3.19832E-01
+9.20000E+09 -8.00970E-01 +1.60135E-01 +4.21564E-01 +1.30721E-01 +2.56760E-02 -2.14490E-02 -3.43284E-01 -3.18537E-01
+9.30000E+09 -8.01371E-01 +1.65466E-01 +4.17452E-01 +1.21352E-01 +2.54823E-02 -2.32225E-02 -3.49877E-01 -3.16775E-01
+9.40000E+09 -7.98931E-01 +1.71227E-01 +4.12427E-01 +1.14418E-01 +2.57195E-02 -2.19732E-02 -3.57738E-01 -3.14712E-01
+9.50000E+09 -7.99385E-01 +1.78533E-01 +4.09313E-01 +1.07112E-01 +2.51098E-02 -2.30723E-02 -3.59620E-01 -3.12554E-01
+9.60000E+09 -7.97800E-01 +1.83478E-01 +4.05744E-01 +1.00880E-01 +2.40042E-02 -2.26838E-02 -3.66255E-01 -3.09806E-01
+9.70000E+09 -7.96874E-01 +1.88429E-01 +4.00822E-01 +9.27988E-02 +2.55395E-02 -2.26643E-02 -3.77359E-01 -3.06986E-01
+9.80000E+09 -7.99352E-01 +1.93449E-01 +3.97168E-01 +8.61236E-02 +2.29235E-02 -2.18971E-02 -3.81937E-01 -3.08227E-01
+9.90000E+09 -7.94809E-01 +1.99367E-01 +3.92225E-01 +7.95880E-02 +2.61994E-02 -2.15221E-02 -3.79865E-01 -3.08044E-01
+1.00000E+10 -7.89088E-01 +2.08244E-01 +3.89631E-01 +7.28780E-02 +2.15494E-02 -2.19719E-02 -3.90288E-01 -2.98056E-01
+1.01000E+10 -7.87801E-01 +2.11034E-01 +3.84531E-01 +6.77956E-02 +2.30862E-02 -2.23922E-02 -4.00616E-01 -2.98389E-01
+1.02000E+10 -7.89159E-01 +2.17306E-01 +3.79055E-01 +6.01587E-02 +2.08588E-02 -2.35095E-02 -4.00021E-01 -3.00291E-01
+1.03000E+10 -7.85964E-01 +2.22901E-01 +3.76127E-01 +5.42384E-02 +2.31602E-02 -2.15291E-02 -3.99756E-01 -2.91075E-01
+1.04000E+10 -7.85442E-01 +2.28413E-01 +3.70246E-01 +4.86733E-02 +2.18419E-02 -2.10946E-02 -4.09223E-01 -2.78801E-01
+1.05000E+10 -7.84886E-01 +2.31869E-01 +3.64741E-01 +4.29431E-02 +2.14341E-02 -2.16801E-02 -4.21256E-01 -2.89119E-01
+1.06000E+10 -7.79508E-01 +2.39131E-01 +3.61737E-01 +3.80592E-02 +2.18833E-02 -2.13565E-02 -4.13837E-01 -2.97200E-01
+1.07000E+10 -7.78719E-01 +2.44636E-01 +3.57517E-01 +3.58164E-02 +2.15794E-02 -2.12420E-02 -3.97484E-01 -2.91641E-01
+1.08000E+10 -7.79405E-01 +2.47910E-01 +3.57075E-01 +3.24257E-02 +2.21360E-02 -2.08847E-02 -4.15464E-01 -2.81643E-01
+1.09000E+10 -7.75026E-01 +2.52687E-01 +3.52261E-01 +2.57670E-02 +2.12034E-02 -2.01964E-02 -4.40359E-01 -2.79164E-01
+1.10000E+10 -7.71566E-01 +2.57294E-01 +3.49610E-01 +2.05981E-02 +2.03711E-02 -2.30976E-02 -4.48965E-01 -2.90734E-01
+1.11000E+10 -7.70486E-01 +2.65126E-01 +3.46462E-01 +1.34802E-02 +2.08449E-02 -2.03433E-02 -4.46968E-01 -2.84867E-01
+1.12000E+10 -7.71750E-01 +2.67591E-01 +3.40816E-01 +8.26022E-03 +1.93574E-02 -2.05236E-02 -4.49182E-01 -2.72646E-01
+1.13000E+10 -7.69262E-01 +2.72537E-01 +3.37211E-01 +4.67629E-03 +1.83180E-02 -2.11890E-02 -4.58212E-01 -2.68159E-01
+1.14000E+10 -7.69077E-01 +2.76212E-01 +3.33667E-01 -6.48008E-04 +1.89844E-02 -2.10981E-02 -4.63546E-01 -2.68200E-01
+1.15000E+10 -7.65606E-01 +2.81381E-01 +3.28215E-01 -4.26225E-03 +1.86490E-02 -2.17268E-02 -4.65006E-01 -2.66033E-01
+1.16000E+10 -7.64008E-01 +2.87958E-01 +3.25407E-01 -9.08211E-03 +1.77962E-02 -2.20260E-02 -4.68288E-01 -2.59717E-01
+1.17000E+10 -7.60631E-01 +2.93558E-01 +3.20044E-01 -1.15091E-02 +1.73127E-02 -2.15598E-02 -4.74224E-01 -2.55849E-01
+1.18000E+10 -7.59482E-01 +2.95741E-01 +3.17650E-01 -1.51164E-02 +1.91228E-02 -2.07444E-02 -4.79431E-01 -2.54676E-01
+1.19000E+10 -7.58814E-01 +3.00658E-01 +3.13814E-01 -1.98342E-02 +1.64640E-02 -2.13790E-02 -4.83500E-01 -2.50706E-01
+1.20000E+10 -7.56450E-01 +3.05511E-01 +3.08990E-01 -2.28629E-02 +1.78541E-02 -2.26894E-02 -4.87580E-01 -2.49315E-01
+1.21000E+10 -7.53362E-01 +3.11517E-01 +3.04595E-01 -2.69773E-02 +1.72683E-02 -1.98885E-02 -4.93257E-01 -2.42345E-01
+1.22000E+10 -7.51782E-01 +3.17085E-01 +3.00644E-01 -2.88790E-02 +1.69341E-02 -2.22148E-02 -4.96617E-01 -2.39966E-01
+1.23000E+10 -7.48268E-01 +3.21135E-01 +2.97248E-01 -3.47863E-02 +1.65204E-02 -2.07209E-02 -5.00607E-01 -2.36397E-01
+1.24000E+10 -7.48100E-01 +3.23301E-01 +2.93941E-01 -3.73979E-02 +1.53145E-02 -2.02352E-02 -5.05583E-01 -2.33623E-01
+1.25000E+10 -7.45650E-01 +3.29060E-01 +2.90196E-01 -3.97619E-02 +1.60831E-02 -2.11125E-02 -5.08730E-01 -2.31206E-01
+1.26000E+10 -7.41797E-01 +3.32250E-01 +2.85451E-01 -4.21518E-02 +1.56513E-02 -2.14929E-02 -5.12907E-01 -2.27056E-01
+1.27000E+10 -7.39492E-01 +3.42840E-01 +2.82131E-01 -4.65813E-02 +1.53250E-02 -2.04226E-02 -5.14775E-01 -2.21749E-01
+1.28000E+10 -7.38954E-01 +3.43397E-01 +2.78380E-01 -4.96338E-02 +1.68004E-02 -2.10435E-02 -5.21500E-01 -2.18314E-01
+1.29000E+10 -7.32513E-01 +3.48321E-01 +2.73908E-01 -5.15744E-02 +1.53031E-02 -1.98651E-02 -5.25468E-01 -2.14405E-01
+1.30000E+10 -7.32980E-01 +3.53142E-01 +2.70618E-01 -5.46662E-02 +1.44754E-02 -2.17289E-02 -5.30034E-01 -2.11809E-01
+1.31000E+10 -7.30024E-01 +3.56398E-01 +2.66288E-01 -5.74941E-02 +1.36569E-02 -1.99549E-02 -5.33526E-01 -2.07108E-01
+1.32000E+10 -7.29102E-01 +3.61360E-01 +2.63854E-01 -6.10651E-02 +1.47405E-02 -2.06269E-02 -5.34399E-01 -2.03080E-01
+1.33000E+10 -7.26159E-01 +3.67541E-01 +2.60927E-01 -6.20834E-02 +1.50311E-02 -2.01547E-02 -5.39739E-01 -1.97035E-01
+1.34000E+10 -7.25422E-01 +3.71389E-01 +2.55335E-01 -6.33488E-02 +1.35810E-02 -2.16324E-02 -5.46061E-01 -1.92828E-01
+1.35000E+10 -7.22213E-01 +3.73442E-01 +2.51650E-01 -6.63977E-02 +1.40719E-02 -1.74220E-02 -5.46490E-01 -1.91667E-01
+1.36000E+10 -7.17288E-01 +3.79877E-01 +2.48076E-01 -6.80586E-02 +1.20635E-02 -2.00424E-02 -5.50263E-01 -1.87938E-01
+1.37000E+10 -7.14781E-01 +3.84289E-01 +2.45857E-01 -7.11788E-02 +1.16597E-02 -1.86100E-02 -5.52888E-01 -1.82345E-01
+1.38000E+10 -7.14146E-01 +3.88243E-01 +2.42269E-01 -7.27946E-02 +1.28030E-02 -2.06104E-02 -5.55927E-01 -1.77965E-01
+1.39000E+10 -7.10812E-01 +3.91417E-01 +2.37866E-01 -7.50854E-02 +1.35818E-02 -1.94682E-02 -5.60712E-01 -1.74006E-01
+1.40000E+10 -7.10372E-01 +3.95359E-01 +2.34999E-01 -7.53637E-02 +1.32189E-02 -1.99864E-02 -5.66268E-01 -1.69784E-01
+1.41000E+10 -7.06374E-01 +3.98632E-01 +2.30245E-01 -7.91770E-02 +1.21121E-02 -1.89611E-02 -5.69077E-01 -1.68518E-01
+1.42000E+10 -7.02535E-01 +4.03265E-01 +2.28520E-01 -8.15038E-02 +1.10759E-02 -2.02910E-02 -5.71221E-01 -1.61989E-01
+1.43000E+10 -7.00195E-01 +4.07710E-01 +2.23191E-01 -8.20166E-02 +1.20218E-02 -1.71775E-02 -5.73022E-01 -1.56178E-01
+1.44000E+10 -6.99577E-01 +4.13284E-01 +2.20543E-01 -8.43829E-02 +1.31275E-02 -1.78908E-02 -5.77198E-01 -1.51336E-01
+1.45000E+10 -6.97770E-01 +4.15797E-01 +2.17181E-01 -8.61902E-02 +1.27037E-02 -1.89211E-02 -5.82578E-01 -1.48257E-01
+1.46000E+10 -6.94288E-01 +4.19409E-01 +2.15534E-01 -8.69101E-02 +1.18781E-02 -1.73585E-02 -5.84693E-01 -1.44983E-01
+1.47000E+10 -6.89711E-01 +4.24524E-01 +2.11189E-01 -8.74787E-02 +1.07759E-02 -1.62902E-02 -5.85664E-01 -1.40116E-01
+1.48000E+10 -6.88879E-01 +4.29365E-01 +2.07287E-01 -9.12080E-02 +1.08438E-02 -1.74183E-02 -5.86642E-01 -1.36262E-01
+1.49000E+10 -6.85963E-01 +4.31797E-01 +2.04853E-01 -9.03632E-02 +1.03085E-02 -1.52788E-02 -5.93432E-01 -1.27688E-01
+1.50000E+10 -6.85062E-01 +4.37250E-01 +2.03141E-01 -9.07478E-02 +1.06746E-02 -1.61543E-02 -5.96299E-01 -1.24115E-01
+1.51000E+10 -6.81129E-01 +4.38968E-01 +1.99182E-01 -9.37240E-02 +9.98554E-03 -1.70397E-02 -5.99245E-01 -1.22451E-01
+1.52000E+10 -6.77204E-01 +4.42324E-01 +1.96537E-01 -9.46143E-02 +1.00552E-02 -1.66873E-02 -5.99475E-01 -1.18407E-01
+1.53000E+10 -6.76578E-01 +4.47412E-01 +1.94091E-01 -9.56178E-02 +1.04750E-02 -1.51844E-02 -6.01063E-01 -1.14254E-01
+1.54000E+10 -6.74768E-01 +4.51906E-01 +1.89496E-01 -9.57062E-02 +1.06377E-02 -1.62227E-02 -6.05638E-01 -1.08341E-01
+1.55000E+10 -6.72058E-01 +4.53652E-01 +1.86478E-01 -9.76180E-02 +8.96088E-03 -1.51603E-02 -6.08678E-01 -1.03854E-01
+1.56000E+10 -6.67252E-01 +4.58571E-01 +1.84260E-01 -9.87685E-02 +1.01464E-02 -1.64525E-02 -6.11198E-01 -9.90794E-02
+1.57000E+10 -6.64367E-01 +4.63339E-01 +1.80498E-01 -9.75774E-02 +9.85431E-03 -1.62212E-02 -6.12199E-01 -9.49299E-02
+1.58000E+10 -6.62449E-01 +4.63992E-01 +1.79093E-01 -1.00467E-01 +9.55723E-03 -1.70031E-02 -6.13698E-01 -9.05566E-02
+1.59000E+10 -6.59974E-01 +4.70553E-01 +1.76220E-01 -1.00692E-01 +1.04080E-02 -1.42371E-02 -6.15126E-01 -8.36064E-02
+1.60000E+10 -6.58479E-01 +4.74480E-01 +1.73701E-01 -1.02340E-01 +8.92285E-03 -1.54181E-02 -6.18902E-01 -7.94186E-02
+1.61000E+10 -6.55667E-01 +4.78452E-01 +1.69110E-01 -1.01345E-01 +7.68361E-03 -1.53415E-02 -6.21591E-01 -7.49594E-02
+1.62000E+10 -6.52440E-01 +4.79716E-01 +1.68180E-01 -1.03011E-01 +9.67406E-03 -1.44355E-02 -6.23536E-01 -7.16538E-02
+1.63000E+10 -6.48549E-01 +4.85495E-01 +1.65048E-01 -1.01551E-01 +9.80512E-03 -1.51074E-02 -6.22604E-01 -6.73387E-02
+1.64000E+10 -6.46087E-01 +4.91479E-01 +1.62338E-01 -1.04808E-01 +1.05187E-02 -1.48479E-02 -6.27379E-01 -6.05123E-02
+1.65000E+10 -6.42701E-01 +4.91459E-01 +1.57941E-01 -1.03803E-01 +1.00321E-02 -1.40715E-02 -6.30713E-01 -5.63139E-02
+1.66000E+10 -6.42234E-01 +4.96455E-01 +1.57105E-01 -1.05450E-01 +9.02400E-03 -1.44089E-02 -6.29430E-01 -5.48266E-02
+1.67000E+10 -6.37587E-01 +4.98009E-01 +1.55031E-01 -1.06634E-01 +9.60906E-03 -1.38150E-02 -6.30713E-01 -5.02934E-02
+1.68000E+10 -6.38090E-01 +5.02046E-01 +1.49503E-01 -1.07870E-01 +9.54918E-03 -1.51152E-02 -6.34730E-01 -4.11629E-02
+1.69000E+10 -6.30755E-01 +5.05664E-01 +1.47321E-01 -1.06530E-01 +9.29895E-03 -1.31788E-02 -6.38963E-01 -3.77032E-02
+1.70000E+10 -6.27410E-01 +5.11437E-01 +1.48135E-01 -1.08318E-01 +7.64503E-03 -1.30320E-02 -6.38253E-01 -3.51756E-02
